time	V(N001,N002)	I(D1)
0.000000000000000e+000	-4.999999e+000	-2.525001e-009
4.464285703014478e-009	-4.999999e+000	-2.283910e-009
8.928571406028956e-009	-4.999998e+000	-2.104581e-009
1.339285710904344e-008	-4.999997e+000	-1.987014e-009
1.785714281205791e-008	-4.999996e+000	-1.931208e-009
2.232142851507239e-008	-4.999995e+000	-1.937164e-009
2.678571421808687e-008	-4.999994e+000	-2.004882e-009
3.124999992110134e-008	-4.999993e+000	-2.134361e-009
5.982142842039400e-007	-4.999880e+000	-2.134327e-009
1.165178568486779e-006	-4.999767e+000	-2.134301e-009
1.732142852769617e-006	-4.999653e+000	-2.134283e-009
2.299107137052456e-006	-4.999540e+000	-2.134273e-009
2.866071421335295e-006	-4.999426e+000	-2.134271e-009
3.433035705618134e-006	-4.999313e+000	-2.134277e-009
3.999999989900971e-006	-4.999199e+000	-2.134290e-009
3.486343749968292e-003	-4.302731e+000	-2.156870e-009
6.968687499946683e-003	-3.606262e+000	-2.146058e-009
1.045103124992507e-002	-2.909793e+000	-2.101853e-009
1.393337499990346e-002	-2.213325e+000	-2.024258e-009
1.741571874988186e-002	-1.516856e+000	-1.913270e-009
2.089806249986025e-002	-8.203872e-001	-1.768890e-009
2.438040624983863e-002	-1.239184e-001	-1.591118e-009
2.443620982126720e-002	-1.127577e-001	-1.555618e-009
2.449201339269578e-002	-1.015970e-001	-1.494571e-009
2.454781696412435e-002	-9.043632e-002	-1.407978e-009
2.460362053555292e-002	-7.927563e-002	-1.295839e-009
2.465942410698149e-002	-6.811495e-002	-1.158154e-009
2.471522767841006e-002	-5.695426e-002	-9.949225e-010
2.477103124983864e-002	-4.579359e-002	-8.061453e-010
2.481985937483864e-002	-3.602801e-002	-5.799879e-010
2.486868749983864e-002	-2.626244e-002	-3.001173e-010
2.491751562483864e-002	-1.649688e-002	4.637535e-011
2.496634374983864e-002	-6.731345e-003	4.755023e-010
2.501517187483864e-002	3.034173e-003	1.007126e-009
2.506399999983864e-002	1.279967e-002	1.665886e-009
2.511282812483864e-002	2.256513e-002	2.482345e-009
2.516165624983864e-002	3.233055e-002	3.494415e-009
2.521048437483864e-002	4.209593e-002	4.749123e-009
2.525931249983864e-002	5.186124e-002	6.304804e-009
2.530814062483864e-002	6.162648e-002	8.233817e-009
2.535696874983864e-002	7.139163e-002	1.062592e-008
2.540579687483864e-002	8.115666e-002	1.359243e-008
2.545462499983865e-002	9.092155e-002	1.727145e-008
2.550345312483865e-002	1.006863e-001	2.183426e-008
2.555228124983865e-002	1.104508e-001	2.749328e-008
2.560110937483865e-002	1.202150e-001	3.451199e-008
2.564993749983865e-002	1.299788e-001	4.321715e-008
2.569876562483865e-002	1.397423e-001	5.401397e-008
2.574759374983865e-002	1.495053e-001	6.740496e-008
2.579642187483865e-002	1.592676e-001	8.401317e-008
2.584524999983865e-002	1.690291e-001	1.046111e-007
2.589407812483865e-002	1.787896e-001	1.301562e-007
2.594290624983865e-002	1.885489e-001	1.618355e-007
2.599173437483865e-002	1.983066e-001	2.011197e-007
2.604056249983865e-002	2.080625e-001	2.498309e-007
2.608939062483865e-002	2.178161e-001	3.102256e-007
2.613821874983865e-002	2.275667e-001	3.850976e-007
2.618704687483866e-002	2.373138e-001	4.779039e-007
2.623587499983866e-002	2.470564e-001	5.929196e-007
2.628470312483866e-002	2.567935e-001	7.354280e-007
2.633353124983866e-002	2.665239e-001	9.119520e-007
2.638235937483866e-002	2.762458e-001	1.130536e-006
2.643118749983866e-002	2.859573e-001	1.401087e-006
2.648001562483866e-002	2.956560e-001	1.735786e-006
2.652884374983866e-002	3.053388e-001	2.149575e-006
2.657767187483866e-002	3.150022e-001	2.660741e-006
2.662649999983866e-002	3.246417e-001	3.291586e-006
2.667532812483866e-002	3.342518e-001	4.069207e-006
2.672415624983866e-002	3.438260e-001	5.026366e-006
2.677298437483866e-002	3.533564e-001	6.202443e-006
2.682181249983866e-002	3.628336e-001	7.644430e-006
2.687064062483867e-002	3.722466e-001	9.407921e-006
2.691946874983867e-002	3.815822e-001	1.155799e-005
2.696829687483867e-002	3.908254e-001	1.416987e-005
2.701712499983867e-002	3.999592e-001	1.732920e-005
2.706595312483867e-002	4.089643e-001	2.113175e-005
2.711478124983867e-002	4.178198e-001	2.568235e-005
2.716360937483867e-002	4.265033e-001	3.109293e-005
2.721243749983867e-002	4.349917e-001	3.747954e-005
2.726126562483867e-002	4.432615e-001	4.495844e-005
2.731009374983867e-002	4.512906e-001	5.364145e-005
2.735892187483867e-002	4.590583e-001	6.363103e-005
2.740774999983867e-002	4.665471e-001	7.501551e-005
2.745657812483867e-002	4.737429e-001	8.786510e-005
2.750540624983867e-002	4.806357e-001	1.022291e-004
2.755423437483867e-002	4.872203e-001	1.181346e-004
2.760306249983868e-002	4.934955e-001	1.355868e-004
2.765189062483868e-002	4.994644e-001	1.545706e-004
2.770071874983868e-002	5.051335e-001	1.750531e-004
2.774954687483868e-002	5.105124e-001	1.969871e-004
2.779837499983868e-002	5.156125e-001	2.203143e-004
2.784720312483868e-002	5.204472e-001	2.449689e-004
2.789603124983868e-002	5.250306e-001	2.708802e-004
2.794485937483868e-002	5.293771e-001	2.979756e-004
2.799368749983868e-002	5.335014e-001	3.261820e-004
2.804251562483868e-002	5.374178e-001	3.554280e-004
2.809134374983868e-002	5.411401e-001	3.856445e-004
2.814017187483868e-002	5.446814e-001	4.167657e-004
2.818899999983868e-002	5.480543e-001	4.487296e-004
2.823782812483868e-002	5.512702e-001	4.814778e-004
2.828665624983869e-002	5.543402e-001	5.149560e-004
2.833548437483869e-002	5.572742e-001	5.491140e-004
2.843314062483869e-002	5.627709e-001	6.192864e-004
2.853079687483869e-002	5.678266e-001	6.916641e-004
2.867728124983869e-002	5.747035e-001	8.037638e-004
2.881679017841012e-002	5.804332e-001	9.146245e-004
2.895629910698155e-002	5.857872e-001	1.027363e-003
2.909580803555298e-002	5.907656e-001	1.141980e-003
2.923531696412441e-002	5.953684e-001	1.258475e-003
2.937482589269585e-002	5.995957e-001	1.376848e-003
2.951433482126727e-002	6.034473e-001	1.497098e-003
2.965384374983870e-002	6.069233e-001	1.619227e-003
3.021187946412440e-002	6.182933e-001	2.120413e-003
3.076991517841010e-002	6.285095e-001	2.627368e-003
3.132795089269580e-002	6.375720e-001	3.140091e-003
3.188598660698150e-002	6.454807e-001	3.658583e-003
3.244402232126720e-002	6.522356e-001	4.182844e-003
3.300205803555290e-002	6.578368e-001	4.712874e-003
3.356009374983859e-002	6.622843e-001	5.248673e-003
3.577828571412418e-002	6.771154e-001	7.392709e-003
3.799647767840977e-002	6.903455e-001	9.544750e-003
4.021466964269536e-002	7.019745e-001	1.170480e-002
4.243286160698095e-002	7.120024e-001	1.387285e-002
4.465105357126654e-002	7.204292e-001	1.604891e-002
4.686924553555213e-002	7.272549e-001	1.823297e-002
4.908743749983771e-002	7.324796e-001	2.042504e-002
4.913626562483771e-002	7.326136e-001	2.047320e-002
4.995117187500001e-002	7.348151e-001	2.127710e-002
5.000000000000000e-002	7.349453e-001	2.132527e-002
